<Qucs Dataset 0.0.19>
<indep time 100>
  +0.00000000000000000000e+00
  +2.02020202020202020027e-04
  +4.04040404040404040054e-04
  +6.06060606060606060080e-04
  +8.08080808080808080107e-04
  +1.01010101010101010013e-03
  +1.21212121212121212016e-03
  +1.41414141414141414019e-03
  +1.61616161616161616021e-03
  +1.81818181818181818024e-03
  +2.02020202020202020027e-03
  +2.22222222222222222029e-03
  +2.42424242424242424032e-03
  +2.62626262626262626035e-03
  +2.82828282828282828038e-03
  +3.03030303030303030040e-03
  +3.23232323232323232043e-03
  +3.43434343434343434046e-03
  +3.63636363636363636048e-03
  +3.83838383838383838051e-03
  +4.04040404040404040054e-03
  +4.24242424242424198688e-03
  +4.44444444444444444059e-03
  +4.64646464646464689430e-03
  +4.84848484848484848064e-03
  +5.05050505050505006699e-03
  +5.25252525252525252070e-03
  +5.45454545454545497440e-03
  +5.65656565656565656075e-03
  +5.85858585858585814710e-03
  +6.06060606060606060080e-03
  +6.26262626262626305451e-03
  +6.46464646464646464086e-03
  +6.66666666666666622720e-03
  +6.86868686868686868091e-03
  +7.07070707070707113462e-03
  +7.27272727272727272096e-03
  +7.47474747474747430731e-03
  +7.67676767676767676102e-03
  +7.87878787878787921473e-03
  +8.08080808080808080107e-03
  +8.28282828282828238742e-03
  +8.48484848484848397376e-03
  +8.68686868686868729483e-03
  +8.88888888888888888118e-03
  +9.09090909090909046752e-03
  +9.29292929292929378859e-03
  +9.49494949494949537494e-03
  +9.69696969696969696129e-03
  +9.89898989898989854763e-03
  +1.01010101010101001340e-02
  +1.03030303030303034550e-02
  +1.05050505050505050414e-02
  +1.07070707070707066277e-02
  +1.09090909090909099488e-02
  +1.11111111111111115352e-02
  +1.13131313131313131215e-02
  +1.15151515151515147078e-02
  +1.17171717171717162942e-02
  +1.19191919191919196153e-02
  +1.21212121212121212016e-02
  +1.23232323232323227880e-02
  +1.25252525252525261090e-02
  +1.27272727272727276954e-02
  +1.29292929292929292817e-02
  +1.31313131313131308681e-02
  +1.33333333333333324544e-02
  +1.35353535353535357755e-02
  +1.37373737373737373618e-02
  +1.39393939393939389482e-02
  +1.41414141414141422692e-02
  +1.43434343434343438556e-02
  +1.45454545454545454419e-02
  +1.47474747474747470283e-02
  +1.49494949494949486146e-02
  +1.51515151515151519357e-02
  +1.53535353535353535220e-02
  +1.55555555555555551084e-02
  +1.57575757575757584295e-02
  +1.59595959595959582811e-02
  +1.61616161616161616021e-02
  +1.63636363636363649232e-02
  +1.65656565656565647748e-02
  +1.67676767676767680959e-02
  +1.69696969696969679475e-02
  +1.71717171717171712686e-02
  +1.73737373737373745897e-02
  +1.75757575757575744413e-02
  +1.77777777777777777624e-02
  +1.79797979797979810834e-02
  +1.81818181818181809350e-02
  +1.83838383838383842561e-02
  +1.85858585858585875772e-02
  +1.87878787878787874288e-02
  +1.89898989898989907499e-02
  +1.91919191919191906015e-02
  +1.93939393939393939226e-02
  +1.95959595959595972436e-02
  +1.97979797979797970953e-02
  +2.00000000000000004163e-02
</indep>
<dep V1.It time>
  +0.00000000000000000000e+00
  -1.26593726980868955618e-05
  -2.51150558245777714950e-05
  -3.71666372113415495481e-05
  -4.86202066933420263845e-05
  -5.92914759360665163512e-05
  -6.90087431888504405962e-05
  -7.76156551611727039573e-05
  -8.49737215745476997782e-05
  -9.09645421999123195665e-05
  -9.54917113213547889784e-05
  -9.84823702101701199804e-05
  -9.98883834559152712163e-05
  -9.96871191437179182421e-05
  -9.78818170085439824470e-05
  -9.45015356687080077024e-05
  -8.96006802888370723539e-05
  -8.32581216884495541302e-05
  -7.55759239555513987873e-05
  -6.66777015221814493666e-05
  -5.67066310770348021666e-05
  -4.58231491488590532619e-05
  -3.42023717735624312544e-05
  -2.20312775856269930420e-05
  -9.50569970273060686837e-06
  +3.17282508976446861178e-06
  +1.58002990583452107326e-05
  +2.81735458894218982525e-05
  +4.00934798238386042252e-05
  +5.13683088845840347134e-05
  +6.18166205681352283908e-05
  +7.12703002439649580153e-05
  +7.95772352160911526382e-05
  +8.66037609776709298983e-05
  +9.22368106750051278781e-05
  +9.63857341109004389342e-05
  +9.89837582655734833734e-05
  +9.99890663234249634948e-05
  +9.93854761288657834357e-05
  +9.71827035817928217660e-05
  +9.34162044261198322090e-05
  +8.81465984401850268263e-05
  +8.14586889084991945097e-05
  +7.34600954852884091692e-05
  +6.42795223995964396663e-05
  +5.40646886710138271448e-05
  +4.29799525932196538791e-05
  +3.12036682085269686387e-05
  +1.89253162067542951325e-05
  +6.34245548370209060482e-06
  -6.34245548369152895100e-06
  -1.89253162067550676265e-05
  -3.12036682085277140277e-05
  -4.29799525932203653868e-05
  -5.40646886710144979949e-05
  -6.42795223995970495300e-05
  -7.34600954852889512703e-05
  -8.14586889084930552149e-05
  -8.81465984401800394963e-05
  -9.34162044261180703805e-05
  -9.71827035817916698012e-05
  -9.93854761288652548872e-05
  -9.99890663234249499423e-05
  -9.89837582655725618016e-05
  -9.63857341109017399768e-05
  -9.22368106750070116794e-05
  -8.66037609776762153839e-05
  -7.95772352160906511946e-05
  -7.12703002439604043662e-05
  -6.18166205681435496425e-05
  -5.13683088845833706396e-05
  -4.00934798238378791650e-05
  -2.81735458894156878069e-05
  -1.58002990583444348504e-05
  -3.17282508978072783271e-06
  +9.50569970273138783274e-06
  +2.20312775856277621479e-05
  +3.42023717735631698671e-05
  +4.58231491488546961244e-05
  +5.67066310770237433044e-05
  +6.66777015221799179310e-05
  +7.55759239555575109771e-05
  +8.32581216884421002403e-05
  +8.96006802888399590422e-05
  +9.45015356687026815592e-05
  +9.78818170085406485253e-05
  +9.96871191437184196856e-05
  +9.98883834559160437103e-05
  +9.84823702101690086732e-05
  +9.54917113213532846479e-05
  +9.09645421999196650362e-05
  +8.49737215745457888719e-05
  +7.76156551611704135802e-05
  +6.90087431888477978534e-05
  +5.92914759360641717640e-05
  +4.86202066933599767067e-05
  +3.71666372113394963403e-05
  +2.51150558245763213746e-05
  +1.26593726980857656199e-05
  -7.85762547124717764035e-19
</dep>
<dep vin.Vt time>
  +0.00000000000000000000e+00
  +1.26592453573748292550e-01
  +2.51147987181077336771e-01
  +3.71662455660328183704e-01
  +4.86196736100465320973e-01
  +5.92907929054639515343e-01
  +6.90079011482113036102e-01
  +7.76146464291754822895e-01
  +8.49725429949510280281e-01
  +9.09631995354519218289e-01
  +9.54902241444073096588e-01
  +9.84807753012209352583e-01
  +9.98867339183008073888e-01
  +9.96854775951942495560e-01
  +9.78802446214780075273e-01
  +9.45000818714672008447e-01
  +8.95993774291342637284e-01
  +8.32569854634766626233e-01
  +7.55749574354255604369e-01
  +6.66769000516292065228e-01
  +5.67059863862774848897e-01
  +4.58226521727444158216e-01
  +3.42020143325655223698e-01
  +2.20310532786530982596e-01
  +9.50560433041773428231e-02
  -3.17279334980116733966e-02
  -1.58001395973346281387e-01
  -2.81732556841476411424e-01
  -4.00930535406602062132e-01
  -5.13677391573391539659e-01
  -6.18158986220588180238e-01
  -7.12694171378884355761e-01
  -7.95761840530813557848e-01
  -8.66025403784421055065e-01
  -9.22354294104588023906e-01
  -9.63842158559945372254e-01
  -9.89821441880933905466e-01
  -9.99874127673874180111e-01
  -9.93838464461254234017e-01
  -9.71811568323542984693e-01
  -9.34147860265110319133e-01
  -8.81453363447615712012e-01
  -8.14575952050379692437e-01
  -7.34591708657510666924e-01
  -6.42787609686517269481e-01
  -5.40640817455672828551e-01
  -4.29794912089153768875e-01
  -3.12033445698472633456e-01
  -1.89251244360399695221e-01
  -6.34239196565583307486e-02
  +6.34239196564527207833e-02
  +1.89251244360407411271e-01
  +3.12033445698480127461e-01
  +4.29794912089160874302e-01
  +5.40640817455679489889e-01
  +6.42787609686523264685e-01
  +7.34591708657515995995e-01
  +8.14575952050318408126e-01
  +8.81453363447565751976e-01
  +9.34147860265092777610e-01
  +9.71811568323531438374e-01
  +9.93838464461248793924e-01
  +9.99874127673874069089e-01
  +9.89821441880924690615e-01
  +9.63842158559958472885e-01
  +9.22354294104606897697e-01
  +8.66025403784473901680e-01
  +7.95761840530808672867e-01
  +7.12694171378839058661e-01
  +6.18158986220671335943e-01
  +5.13677391573384878320e-01
  +4.00930535406594845682e-01
  +2.81732556841414294446e-01
  +1.58001395973338509826e-01
  +3.17279334981742655586e-02
  -9.50560433041851560176e-02
  -2.20310532786538670891e-01
  -3.42020143325662606681e-01
  -4.58226521727400581963e-01
  -5.67059863862664270684e-01
  -6.66769000516276744150e-01
  -7.55749574354316666636e-01
  -8.32569854634692241291e-01
  -8.95993774291371392060e-01
  -9.45000818714618828764e-01
  -9.78802446214746657560e-01
  -9.96854775951947602586e-01
  -9.98867339183015845450e-01
  -9.84807753012198028308e-01
  -9.54902241444058108577e-01
  -9.09631995354592715053e-01
  -8.49725429949491184445e-01
  -7.76146464291731952301e-01
  -6.90079011482086723817e-01
  -5.92907929054615978615e-01
  -4.86196736100644788525e-01
  -3.71662455660307644578e-01
  -2.51147987181062848361e-01
  -1.26592453573736996031e-01
  +7.85754689491388776603e-15
</dep>
<dep _net0.Vt time>
  +0.00000000000000000000e+00
  -1.27340712065455884549e-06
  -2.57106470035581492788e-06
  -3.91645308727460329242e-06
  -5.33083295492773799417e-06
  -6.83030602563337460532e-06
  -8.42040639124138902112e-06
  -1.00873199722013058425e-05
  -1.17857959667002301385e-05
  -1.34266446038566353657e-05
  -1.48717694747491537140e-05
  -1.59490894918932313946e-05
  -1.64953761446760554675e-05
  -1.64154852366981677712e-05
  -1.57238706598129346836e-05
  -1.45379724080401538557e-05
  -1.30285970281416644515e-05
  -1.13622497288252288393e-05
  -9.66520125832390320322e-06
  -8.01470552238811221159e-06
  -6.44690757309613516902e-06
  -4.96976114631780986072e-06
  -3.57440996908530477720e-06
  -2.24306973895568385866e-06
  -9.53723128728916013408e-07
  +3.17399633006979037407e-07
  +1.59461010583766462404e-06
  +2.90205274257010231815e-06
  +4.26283178396698707178e-06
  +5.69727244874720044733e-06
  +7.21946076416906571229e-06
  +8.83106076504742697219e-06
  +1.05116300978628238530e-05
  +1.22059922881354021156e-05
  +1.38126454631504838350e-05
  +1.51825490588742444999e-05
  +1.61407748008857539678e-05
  +1.65355603753717225930e-05
  +1.62968274036182806470e-05
  +1.54674943851471118289e-05
  +1.41839960879128558263e-05
  +1.26209542345518874445e-05
  +1.09370346121197385285e-05
  +9.24619537345350878013e-06
  +7.61430944716505300523e-06
  +6.06925446546506593289e-06
  +4.61384304280819801928e-06
  +3.23638679704207923274e-06
  +1.91770714325273943480e-06
  +6.35180462566691441060e-07
  -6.35180462565630638172e-07
  -1.91770714325282032645e-06
  -3.23638679704216224197e-06
  -4.61384304280828526368e-06
  -6.06925446546515741245e-06
  -7.61430944716516142545e-06
  -9.24619537345361381222e-06
  -1.09370346121183239835e-05
  -1.26209542345505965663e-05
  -1.41839960879140586131e-05
  -1.54674943851466950887e-05
  -1.62968274036180671947e-05
  -1.65355603753717259811e-05
  -1.61407748008853914377e-05
  -1.51825490588747120621e-05
  -1.38126454631514359000e-05
  -1.22059922881368014140e-05
  -1.05116300978626205651e-05
  -8.83106076504659349177e-06
  -7.21946076417038793072e-06
  -5.69727244874711235591e-06
  -4.26283178396690236848e-06
  -2.90205274256942426827e-06
  -1.59461010583758436767e-06
  -3.17399633008606770034e-07
  +9.53723128728994575714e-07
  +2.24306973895576517382e-06
  +3.57440996908538863346e-06
  +4.96976114631725590117e-06
  +6.44690757309452326532e-06
  +8.01470552238785301951e-06
  +9.66520125832513648319e-06
  +1.13622497288234720929e-05
  +1.30285970281420218994e-05
  +1.45379724080383886391e-05
  +1.57238706598117014036e-05
  +1.64154852366983575066e-05
  +1.64953761446763637875e-05
  +1.59490894918928044900e-05
  +1.48717694747486319418e-05
  +1.34266446038588274870e-05
  +1.17857959666997473298e-05
  +1.00873199722008196456e-05
  +8.42040639124092145894e-06
  +6.83030602563301969852e-06
  +5.33083295493009189873e-06
  +3.91645308727436273507e-06
  +2.57106470035565949734e-06
  +1.27340712065444407253e-06
  -7.85763332888058686780e-20
</dep>
<dep vout.Vt time>
  +0.00000000000000000000e+00
  -1.26593854321581011924e+00
  -2.51150815352247747114e+00
  -3.71666763758724227884e+00
  -4.86202600016715802411e+00
  -5.92915442391267788480e+00
  -6.90088273929143358743e+00
  -7.76157560343724295393e+00
  -8.49738394325073542745e+00
  -9.09646764663583518029e+00
  -9.54918600390495342367e+00
  -9.84825297010650402285e+00
  -9.98885484096767051199e+00
  -9.96872832985702750364e+00
  -9.78819742472505893716e+00
  -9.45016810484320757269e+00
  -8.96008105748073724328e+00
  -8.32582353109468442653e+00
  -7.55760206075639739964e+00
  -6.66777816692366709361e+00
  -5.67066955461105237646e+00
  -4.58231988464705075614e+00
  -3.42024075176621211725e+00
  -2.20313000163243843943e+00
  -9.50570923996189365290e-01
  +3.17282826376079796216e-01
  +1.58003150044462703505e+00
  +2.81735749099493215653e+00
  +4.00935224521564403943e+00
  +5.13683658573085111243e+00
  +6.18166927627428730574e+00
  +7.12703885545725945860e+00
  +7.95773403323921169061e+00
  +8.66038830375938140094e+00
  +9.22369488014597393999e+00
  +9.63858859363910269735e+00
  +9.89839196733214876645e+00
  +9.99892316790286983519e+00
  +9.93856390971398262479e+00
  +9.71828582567366616729e+00
  +9.34163462660806942495e+00
  +8.81467246497273748673e+00
  +8.14587982788452968919e+00
  +7.34601879472421437356e+00
  +6.42795985426909233240e+00
  +5.40647493635584819316e+00
  +4.29799987316500864409e+00
  +3.12037005723949389946e+00
  +1.89253353838257276642e+00
  +6.34246183550671638329e-01
  -6.34246183549615483166e-01
  -1.89253353838264981590e+00
  -3.12037005723956895054e+00
  -4.29799987316507969837e+00
  -5.40647493635591480654e+00
  -6.42795985426915184036e+00
  -7.34601879472426766426e+00
  -8.14587982788391684608e+00
  -8.81467246497223655410e+00
  -9.34163462660789356562e+00
  -9.71828582567355070410e+00
  -9.93856390971392755773e+00
  -9.99892316790286983519e+00
  -9.89839196733205639589e+00
  -9.63858859363923237140e+00
  -9.22369488014616401017e+00
  -8.66038830375990897892e+00
  -7.95773403323916284080e+00
  -7.12703885545680648761e+00
  -6.18166927627511952892e+00
  -5.13683658573078449905e+00
  -4.00935224521557209698e+00
  -2.81735749099431087572e+00
  -1.58003150044454931944e+00
  -3.17282826377705773346e-01
  +9.50570923996267524991e-01
  +2.20313000163251526686e+00
  +3.42024075176628628014e+00
  +4.58231988464661466054e+00
  +5.67066955460994748250e+00
  +6.66777816692351343875e+00
  +7.55760206075700846640e+00
  +8.32582353109394013302e+00
  +8.96008105748102501309e+00
  +9.45016810484267644199e+00
  +9.78819742472472498207e+00
  +9.96872832985707901798e+00
  +9.98885484096774867169e+00
  +9.84825297010639033601e+00
  +9.54918600390480243334e+00
  +9.09646764663657059202e+00
  +8.49738394325054535727e+00
  +7.76157560343701380390e+00
  +6.90088273929117068661e+00
  +5.92915442391244162934e+00
  +4.86202600016895214452e+00
  +3.71666763758703666554e+00
  +2.51150815352233269806e+00
  +1.26593854321569732058e+00
  -7.85763332888050465023e-14
</dep>
<indep V1.I 1>
  +0.00000000000000000000e+00
</indep>
<indep vin.V 1>
  +0.00000000000000000000e+00
</indep>
<indep _net0.V 1>
  +0.00000000000000000000e+00
</indep>
<indep vout.V 1>
  +0.00000000000000000000e+00
</indep>
